Circuit: * C:\Users\alexi\OneDrive - USherbrooke\Uni\S1\APP3\Draft2.asc

Direct Newton iteration failed to find .op point.  (Use ".option noopiter" to skip.)
Starting Gmin stepping
Gmin = 10
Gmin = 1.07374
Gmin = 0.115292
Gmin = 0.0123794
Gmin = 0.00132923
Gmin = 0.000142725
Gmin = 1.5325e-005
Gmin = 1.6455e-006
Gmin = 1.76685e-007
Gmin = 1.89714e-008
Gmin = 2.03704e-009
Gmin = 2.18725e-010
Gmin = 2.34854e-011
Gmin = 2.52173e-012
Gmin = 2.70769e-013
Gmin = 0
Gmin stepping succeeded in finding the operating point.

Semiconductor Device Operating Points:
                        --- Diodes ---
Name:      d2          d1        d:u3:4      d:u3:1      d:u2:9
Model:  qtlp690c    qtlp690c      u3:di       u3:x     u2:dilimu2
Id:      1.76e-13    1.15e-02    9.13e-12   -1.68e-14    1.76e-06
Vd:      1.76e-01    1.86e+00    9.13e-03   -1.68e-02    1.76e-01
Req:     1.00e+12    3.38e+00    1.00e-09    1.00e-12    1.00e-05
CAP:     5.51e-11    1.62e-10    0.00e+00    0.00e+00    0.00e+00

Name:    d:u2:6      d:u2:4      d:u2:2      d:u2:15     d:u2:1
Model:  u2:dbiasc   u2:dbias    u2:dbias    u2:dsionp  u2:dsioffp
Id:      2.50e-06    2.50e-06    2.50e-06    1.19e-07   -1.03e-10
Vd:      1.08e+00    4.91e+00    5.99e+00    2.75e+00   -2.75e+00
Req:     1.00e-04    1.00e-03    1.00e-03    4.36e+05    1.00e+12
CAP:     0.00e+00    0.00e+00    0.00e+00    2.29e-16    1.00e-21

Name:    d:u2:7      d:u2:3      d:u2:16     d:u2:8      d:u2:13
Model: u2:dsioffn   u2:dsionn   u2:dilimd  u2:dilimu1     u2:dp
Id:      1.44e-07   -1.88e-13    9.65e-06   -9.69e-06    1.49e-03
Vd:      1.88e-01   -1.88e-01    1.72e-01    1.76e-01    1.00e+01
Req:     1.80e+05    1.00e+12    1.43e-01    6.67e-02    1.00e-02
CAP:     5.56e-16    2.00e-22    0.00e+00    0.00e+00    0.00e+00

Name:    d:u2:5      d:u1:9      d:u1:6      d:u1:4      d:u1:2
Model:   u2:dlat   u1:dilimu2   u1:dbiasc   u1:dbias    u1:dbias
Id:     -1.00e-04    1.83e-06   -2.50e-06    2.50e-06    2.50e-06
Vd:     -1.00e+00    1.83e-01   -9.17e-01    4.91e+00    3.99e+00
Req:     1.00e-04    1.00e-05    1.00e-04    1.00e-03    1.00e-03
CAP:     0.00e+00    0.00e+00    0.00e+00    0.00e+00    0.00e+00

Name:    d:u1:15     d:u1:1      d:u1:7      d:u1:3      d:u1:16
Model:  u1:dsionp  u1:dsioffp  u1:dsioffn   u1:dsionn   u1:dilimd
Id:     -1.92e-13    1.66e-07   -1.03e-10    8.85e-08    1.24e-02
Vd:     -1.92e-01    1.92e-01   -2.73e+00    2.73e+00    2.85e-01
Req:     1.00e+12    1.56e+05    1.00e+12    5.84e+05    1.43e-01
CAP:     1.00e-22    6.43e-15    1.00e-22    3.42e-16    0.00e+00

Name:    d:u1:8      d:u1:13     d:u1:5
Model: u1:dilimu1     u1:dp      u1:dlat
Id:      7.65e-06    1.49e-03    1.00e-04
Vd:      1.83e-01    1.00e+01    1.00e+00
Req:     6.67e-02    1.00e-02    1.00e-04
CAP:     0.00e+00    0.00e+00    0.00e+00

                        --- VDMOSFET Transistors ---
Name:        m:u3:2      m:u3:1      m:u2:4      m:u2:3      m:u1:4
Model:        u3:p        u3:n        u2:pi       u2:ni       u1:pi
Id:         -2.00e-03    2.51e-03    7.93e-06    9.65e-06   -9.48e-06
Vgs:         1.68e-02    1.68e-02   -2.57e+00   -3.60e-01    3.75e-01
Vds:        -5.09e+00    4.91e+00    1.07e-05    9.65e+00   -9.48e+00
Vth:         3.00e-01   -3.00e-01   -1.00e-01    1.00e-01   -1.00e-01
Gm:          1.42e-02    1.58e-02    3.21e-06    0.00e+00    0.00e+00
Gds:         0.00e+00    0.00e+00    7.42e-01    0.00e+00    0.00e+00
Cgs:         0.00e+00    0.00e+00    0.00e+00    0.00e+00    0.00e+00
Cgd:         0.00e+00    0.00e+00    0.00e+00    0.00e+00    0.00e+00
Cbody:       0.00e+00    0.00e+00    0.00e+00    0.00e+00    0.00e+00

Name:        m:u1:3
Model:        u1:ni
Id:          1.24e-02
Vgs:         2.45e+00
Vds:         5.36e-02
Vth:         1.00e-01
Gm:          5.36e-03
Gds:         2.29e-01
Cgs:         0.00e+00
Cgd:         0.00e+00
Cbody:       0.00e+00



Date: Thu Oct 20 14:53:07 2022
Total elapsed time: 0.063 seconds.

tnom = 27
temp = 27
method = trap
totiter = 521
traniter = 0
tranpoints = 0
accept = 0
rejected = 0
matrix size = 35
fillins = 24
solver = Normal
Thread vector: 5.4/4.0[3] 0.0/0.0[0] 1.3/1.2[2] 0.2/0.7[1]  2592/500
Matrix Compiler1: 2.92 KB object code size
Matrix Compiler2: off  [0.2]/0.3/0.3

