Circuit: * C:\Users\alexi\OneDrive - USherbrooke\Uni\S1\APP3\Draft1.asc

Direct Newton iteration failed to find .op point.  (Use ".option noopiter" to skip.)
Starting Gmin stepping
Gmin = 10
Gmin = 1.07374
Gmin = 0.115292
Gmin = 0.0123794
Gmin = 0.00132923
Gmin = 0.000142725
Gmin = 1.5325e-005
Gmin = 1.6455e-006
Gmin = 1.76685e-007
Gmin = 1.89714e-008
Gmin = 2.03704e-009
Gmin = 2.18725e-010
Gmin = 2.34854e-011
Gmin = 2.52173e-012
Gmin = 2.70769e-013
Gmin = 0
Gmin stepping succeeded in finding the operating point.

Semiconductor Device Operating Points:
                        --- Diodes ---
Name:      d2          d1        d:u3:9      d:u3:6      d:u3:4
Model:      d           d      u3:dilimu2   u3:dbiasc   u3:dbias
Id:      1.31e-02    9.13e-12    1.83e-06   -2.50e-06    2.50e-06
Vd:      7.22e-01    1.76e-01    1.83e-01   -3.96e+00    9.95e+00
Req:     1.97e+00    2.88e+09    1.00e-05    1.00e-04    1.00e-03
CAP:     0.00e+00    0.00e+00    0.00e+00    0.00e+00    0.00e+00

Name:    d:u3:2      d:u3:15     d:u3:1      d:u3:7      d:u3:3
Model:  u3:dbias    u3:dsionp  u3:dsioffp  u3:dsioffn   u3:dsionn
Id:      2.50e-06   -1.92e-13    1.66e-07   -1.03e-10    8.85e-08
Vd:      5.99e+00   -1.92e-01    1.92e-01   -2.73e+00    2.73e+00
Req:     1.00e-03    1.00e+12    1.56e+05    1.00e+12    5.84e+05
CAP:     0.00e+00    1.00e-22    6.43e-15    1.00e-22    3.42e-16

Name:    d:u3:16     d:u3:8      d:u3:13     d:u3:5      d:u2:9
Model:  u3:dilimd  u3:dilimu1     u3:dp      u3:dlat   u2:dilimu2
Id:      1.41e-02    7.63e-06    1.49e-03    1.00e-04    1.76e-06
Vd:      2.98e-01    1.83e-01    1.00e+01    1.00e+00    1.76e-01
Req:     1.43e-01    6.67e-02    1.00e-02    1.00e-04    1.00e-05
CAP:     0.00e+00    0.00e+00    0.00e+00    0.00e+00    0.00e+00

Name:    d:u2:6      d:u2:4      d:u2:2      d:u2:15     d:u2:1
Model:  u2:dbiasc   u2:dbias    u2:dbias    u2:dsionp  u2:dsioffp
Id:      2.50e-06    9.32e-11    2.50e-06    1.19e-07   -1.03e-10
Vd:      3.06e+00    9.32e-01    3.99e+00    2.75e+00   -2.75e+00
Req:     1.00e-04    1.00e-10    1.00e-03    4.36e+05    1.00e+12
CAP:     0.00e+00    0.00e+00    0.00e+00    2.29e-16    1.00e-21

Name:    d:u2:7      d:u2:3      d:u2:16     d:u2:8      d:u2:13
Model: u2:dsioffn   u2:dsionn   u2:dilimd  u2:dilimu1     u2:dp
Id:      1.44e-07   -1.88e-13    9.65e-06   -9.69e-06    1.49e-03
Vd:      1.88e-01   -1.88e-01    1.72e-01    1.76e-01    1.00e+01
Req:     1.80e+05    1.00e+12    1.43e-01    6.67e-02    1.00e-02
CAP:     5.56e-16    2.00e-22    0.00e+00    0.00e+00    0.00e+00

Name:    d:u2:5      d:u1:4      d:u1:1
Model:   u2:dlat      u1:di       u1:x
Id:     -1.00e-04   -4.95e-10   -3.37e-06
Vd:     -1.00e+00   -4.95e-01   -9.02e-01
Req:     1.00e-04    1.00e-09    1.00e-04
CAP:     0.00e+00    0.00e+00    0.00e+00

                        --- VDMOSFET Transistors ---
Name:        m:u3:4      m:u3:3      m:u2:4      m:u2:3      m:u1:2
Model:        u3:pi       u3:ni       u2:pi       u2:ni       u1:p
Id:         -9.46e-06    1.41e-02    7.93e-06    9.65e-06   -2.25e-03
Vgs:         3.75e-01    2.44e+00   -2.57e+00   -3.60e-01   -2.91e-05
Vds:        -9.46e+00    6.11e-02    1.07e-05    9.65e+00   -9.07e+00
Vth:        -1.00e-01    1.00e-01   -1.00e-01    1.00e-01    3.00e-01
Gm:          0.00e+00    6.11e-03    3.21e-06    0.00e+00    1.50e-02
Gds:         0.00e+00    2.27e-01    7.42e-01    0.00e+00    0.00e+00
Cgs:         0.00e+00    0.00e+00    0.00e+00    0.00e+00    0.00e+00
Cgd:         0.00e+00    0.00e+00    0.00e+00    0.00e+00    0.00e+00
Cbody:       0.00e+00    0.00e+00    0.00e+00    0.00e+00    0.00e+00

Name:        m:u1:1
Model:        u1:n
Id:          2.25e-03
Vgs:        -2.91e-05
Vds:         9.32e-01
Vth:        -3.00e-01
Gm:          1.50e-02
Gds:         0.00e+00
Cgs:         0.00e+00
Cgd:         0.00e+00
Cbody:       0.00e+00



Date: Wed Oct 19 17:49:01 2022
Total elapsed time: 0.050 seconds.

tnom = 27
temp = 27
method = trap
totiter = 521
traniter = 0
tranpoints = 0
accept = 0
rejected = 0
matrix size = 38
fillins = 30
solver = Normal
Thread vector: 4.6/4.0[3] 0.0/0.0[0] 1.3/1.1[3] 0.1/0.7[1]  2592/500
Matrix Compiler1: 2.98 KB object code size
Matrix Compiler2: off  [0.2]/0.3/0.3

