Circuit: * C:\Users\alexi\OneDrive - USherbrooke\Uni\S1\APP3\Formatif pratique.asc

WARNING: Less than two connections to node N001.  This node is used by V3.
Direct Newton iteration failed to find .op point.  (Use ".option noopiter" to skip.)
Starting Gmin stepping
Gmin = 10
Gmin = 1.07374
Gmin = 0.115292
Gmin = 0.0123794
Gmin = 0.00132923
Gmin = 0.000142725
Gmin = 1.5325e-005
Gmin = 1.6455e-006
Gmin = 1.76685e-007
Gmin = 1.89714e-008
Gmin = 2.03704e-009
Gmin = 2.18725e-010
Gmin = 2.34854e-011
Gmin = 2.52173e-012
Gmin = 2.70769e-013
Gmin = 0
Gmin stepping succeeded in finding the operating point.

Semiconductor Device Operating Points:
                        --- Diodes ---
Name:    d:u1:4      d:u1:1        d2          d1        d:u3:9
Model:    u1:di       u1:x      qtlp690c    qtlp690c   u3:dilimu2
Id:     -5.03e-10   -1.58e-07    5.98e-14    5.98e-14    1.76e-06
Vd:     -5.03e-01   -8.38e-01    5.98e-02    5.98e-02    1.76e-01
Req:     1.00e-09    1.00e-04    1.00e+12    1.00e+12    1.00e-05
CAP:     0.00e+00    0.00e+00    5.16e-11    5.16e-11    0.00e+00

Name:    d:u3:6      d:u3:4      d:u3:2      d:u3:15     d:u3:1
Model:  u3:dbiasc   u3:dbias    u3:dbias    u3:dsionp  u3:dsioffp
Id:      8.53e-07    3.98e-12    4.86e-12    1.17e-07   -1.03e-10
Vd:      8.89e-03    3.98e-02    4.86e-02    2.75e+00   -2.75e+00
Req:     1.00e-04    1.00e-10    1.00e-10    4.44e+05    1.00e+12
CAP:     0.00e+00    0.00e+00    0.00e+00    2.25e-16    1.00e-21

Name:    d:u3:7      d:u3:3      d:u3:16     d:u3:8      d:u3:13
Model: u3:dsioffn   u3:dsionn   u3:dilimd  u3:dilimu1     u3:dp
Id:      1.42e-07   -1.88e-13   -3.36e-07   -8.08e-06    1.24e-08
Vd:      1.88e-01   -1.88e-01    1.69e-01    1.76e-01    1.24e-02
Req:     1.83e+05    1.00e+12    1.43e-01    6.67e-02    1.00e-06
CAP:     5.48e-16    2.00e-22    0.00e+00    0.00e+00    0.00e+00

Name:    d:u3:5      d:u2:9      d:u2:6      d:u2:4      d:u2:2
Model:   u3:dlat   u2:dilimu2   u2:dbiasc   u2:dbias    u2:dbias
Id:     -9.84e-05    1.76e-06    2.04e-06    3.98e-12    6.85e-12
Vd:     -9.84e-01    1.76e-01    2.87e-02    3.98e-02    6.85e-02
Req:     1.00e-04    1.00e-05    1.00e-04    1.00e-10    1.00e-10
CAP:     0.00e+00    0.00e+00    0.00e+00    0.00e+00    0.00e+00

Name:    d:u2:15     d:u2:1      d:u2:7      d:u2:3      d:u2:16
Model:  u2:dsionp  u2:dsioffp  u2:dsioffn   u2:dsionn   u2:dilimd
Id:      1.17e-07   -1.03e-10    1.42e-07   -1.88e-13   -3.36e-07
Vd:      2.75e+00   -2.75e+00    1.88e-01   -1.88e-01    1.69e-01
Req:     4.44e+05    1.00e+12    1.83e+05    1.00e+12    1.43e-01
CAP:     2.25e-16    1.00e-21    5.48e-16    2.00e-22    0.00e+00

Name:    d:u2:8      d:u2:13     d:u2:5
Model: u2:dilimu1     u2:dp      u2:dlat
Id:     -8.08e-06    1.24e-08   -9.84e-05
Vd:      1.76e-01    1.24e-02   -9.84e-01
Req:     6.67e-02    1.00e-06    1.00e-04
CAP:     0.00e+00    0.00e+00    0.00e+00

                        --- VDMOSFET Transistors ---
Name:        m:u1:2      m:u1:1      m:u3:4      m:u3:3      m:u2:4
Model:        u1:p        u1:n        u3:pi       u3:ni       u2:pi
Id:          4.62e-14    8.43e-11    6.32e-06   -3.36e-07    6.32e-06
Vgs:         9.32e-01    9.32e-01   -2.57e+00   -3.56e-01   -2.57e+00
Vds:         2.74e-02    1.37e-09    8.52e-06   -3.33e-01    8.52e-06
Vth:         3.00e-01   -3.00e-01   -1.00e-01    1.00e-01   -1.00e-01
Gm:          0.00e+00    6.84e-11    2.56e-06    0.00e+00    2.56e-06
Gds:         0.00e+00    6.16e-02    7.41e-01    0.00e+00    7.41e-01
Cgs:         0.00e+00    0.00e+00    0.00e+00    0.00e+00    0.00e+00
Cgd:         0.00e+00    0.00e+00    0.00e+00    0.00e+00    0.00e+00
Cbody:       0.00e+00    0.00e+00    0.00e+00    0.00e+00    0.00e+00

Name:        m:u2:3
Model:        u2:ni
Id:         -3.36e-07
Vgs:        -3.56e-01
Vds:        -3.33e-01
Vth:         1.00e-01
Gm:          0.00e+00
Gds:         0.00e+00
Cgs:         0.00e+00
Cgd:         0.00e+00
Cbody:       0.00e+00



Date: Thu Oct 20 17:39:49 2022
Total elapsed time: 0.139 seconds.

tnom = 27
temp = 27
method = trap
totiter = 410
traniter = 0
tranpoints = 0
accept = 0
rejected = 0
matrix size = 37
fillins = 30
solver = Normal
Matrix Compiler1: 4.78 KB object code size
Matrix Compiler2: off  [0.6]/1.0/0.8

